T411C 000:037.738   SEGGER J-Link V8.68 Log File
T411C 000:037.852   DLL Compiled: Sep 10 2025 12:19:00
T411C 000:037.857   Logging started @ 2026-03-26 14:48
T411C 000:037.862   Process: D:\keil5\UV4\UV4.exe
T411C 000:037.869 - 37.866ms 
T411C 000:037.878 JLINK_SetWarnOutHandler(...)
T411C 000:037.882 - 0.006ms 
T411C 000:037.887 JLINK_OpenEx(...)
T411C 000:042.661   Firmware: J-Link ARM-OB STM32 compiled Aug 22 2012 19:52:04
T411C 000:044.322   Firmware: J-Link ARM-OB STM32 compiled Aug 22 2012 19:52:04
T411C 000:047.187   Hardware: V7.00
T411C 000:047.197   S/N: 20090928
T411C 000:047.204   OEM: SEGGER
T411C 000:047.210   Feature(s): RDI,FlashDL,FlashBP,JFlash,GDB
T411C 000:047.756   Bootloader: (FW returned invalid version)
T411C 000:049.051   TELNET listener socket opened on port 19021
T411C 000:049.139   WEBSRV WEBSRV_Init(): Starting webserver thread(s)
T411C 000:049.245   WEBSRV Webserver running on local port 19080
T411C 000:049.318   Looking for J-Link GUI Server exe at: D:\keil5\ARM\Segger\JLinkGUIServer.exe
T411C 000:049.371   Looking for J-Link GUI Server exe at: C:\Program Files\SEGGER\JLink_V868\JLinkGUIServer.exe
T411C 000:049.397   Forking J-Link GUI Server: C:\Program Files\SEGGER\JLink_V868\JLinkGUIServer.exe
T411C 000:051.519   J-Link GUI Server info: "J-Link GUI server V8.68 "
T411C 000:051.788 - 13.888ms returns "O.K."
T411C 000:051.817 JLINK_GetEmuCaps()
T411C 000:051.824 - 0.005ms returns 0x88EA5833
T411C 000:051.831 JLINK_TIF_GetAvailable(...)
T411C 000:052.244 - 0.412ms 
T411C 000:052.263 JLINK_SetErrorOutHandler(...)
T411C 000:052.267 - 0.004ms 
T411C 000:052.286 JLINK_ExecCommand("ProjectFile = "E:\KeilProject\LVGL_Project_Freertos\PROJECT\JLinkSettings.ini"", ...). 
T411C 000:064.193   Ref file found at: D:\keil5\ARM\Segger\JLinkDevices.ref
T411C 000:064.276   REF file references invalid XML file: C:\Program Files\SEGGER\JLink_V868\JLinkDevices.xml
T411C 000:065.659 - 13.373ms returns 0x00
T411C 000:065.716 JLINK_ExecCommand("Device = STM32F407ZGTx", ...). 
T411C 000:066.257   Device "STM32F407ZG" selected.
T411C 000:066.501 - 0.777ms returns 0x00
T411C 000:066.510 JLINK_ExecCommand("DisableConnectionTimeout", ...). 
T411C 000:066.519   ERROR: Unknown command
T411C 000:066.525 - 0.009ms returns 0x01
T411C 000:066.531 JLINK_GetHardwareVersion()
T411C 000:066.537 - 0.004ms returns 70000
T411C 000:066.542 JLINK_GetDLLVersion()
T411C 000:066.546 - 0.004ms returns 86800
T411C 000:066.551 JLINK_GetOEMString(...)
T411C 000:066.556 JLINK_GetFirmwareString(...)
T411C 000:066.561 - 0.004ms 
T411C 000:066.579 JLINK_GetDLLVersion()
T411C 000:066.584 - 0.004ms returns 86800
T411C 000:066.588 JLINK_GetCompileDateTime()
T411C 000:066.592 - 0.004ms 
T411C 000:066.601 JLINK_GetFirmwareString(...)
T411C 000:066.605 - 0.004ms 
T411C 000:066.613 JLINK_GetHardwareVersion()
T411C 000:066.617 - 0.004ms returns 70000
T411C 000:066.624 JLINK_GetSN()
T411C 000:066.629 - 0.004ms returns 20090928
T411C 000:066.636 JLINK_GetOEMString(...)
T411C 000:066.647 JLINK_TIF_Select(JLINKARM_TIF_SWD)
T411C 000:068.108 - 1.461ms returns 0x00
T411C 000:068.124 JLINK_HasError()
T411C 000:068.138 JLINK_SetSpeed(5000)
T411C 000:068.546 - 0.408ms 
T411C 000:068.563 JLINK_GetId()
T411C 000:069.127   InitTarget() start
T411C 000:069.142    J-Link Script File: Executing InitTarget()
T411C 000:069.672   SWD selected. Executing JTAG -> SWD switching sequence.
T411C 000:078.881   DAP initialized successfully.
T411C 000:108.872   InitTarget() end - Took 39.7ms
T411C 000:110.476   Found SW-DP with ID 0x2BA01477
T411C 000:119.738   Old FW that does not support reading DPIDR via DAP jobs
T411C 000:129.222   DPv0 detected
T411C 000:129.250   CoreSight SoC-400 or earlier
T411C 000:129.267   Scanning AP map to find all available APs
T411C 000:135.363   AP[1]: Stopped AP scan as end of AP map has been reached
T411C 000:135.388   AP[0]: AHB-AP (IDR: 0x24770011, ADDR: 0x00000000)
T411C 000:135.405   Iterating through AP map to find AHB-AP to use
T411C 000:145.782   AP[0]: Core found
T411C 000:145.811   AP[0]: AHB-AP ROM base: 0xE00FF000
T411C 000:151.255   CPUID register: 0x410FC241. Implementer code: 0x41 (ARM)
T411C 000:151.281   Found Cortex-M4 r0p1, Little endian.
T411C 000:152.274   -- Max. mem block: 0x00002C18
T411C 000:153.172   CPU_ReadMem(4 bytes @ 0xE000EDF0)
T411C 000:153.925   CPU_ReadMem(4 bytes @ 0xE0002000)
T411C 000:154.776   FPUnit: 6 code (BP) slots and 2 literal slots
T411C 000:154.792   CPU_ReadMem(4 bytes @ 0xE000EDFC)
T411C 000:155.617   CPU_WriteMem(4 bytes @ 0xE000EDFC)
T411C 000:156.460   CPU_ReadMem(4 bytes @ 0xE0001000)
T411C 000:157.216   CPU_WriteMem(4 bytes @ 0xE0001000)
T411C 000:158.040   CPU_ReadMem(4 bytes @ 0xE000ED88)
T411C 000:158.824   CPU_WriteMem(4 bytes @ 0xE000ED88)
T411C 000:159.663   CPU_ReadMem(4 bytes @ 0xE000ED88)
T411C 000:160.538   CPU_WriteMem(4 bytes @ 0xE000ED88)
T411C 000:161.386   CoreSight components:
T411C 000:161.405   ROMTbl[0] @ E00FF000
T411C 000:161.420   CPU_ReadMem(64 bytes @ 0xE00FF000)
T411C 000:162.788   CPU_ReadMem(32 bytes @ 0xE000EFE0)
T411C 000:163.795   [0][0]: E000E000 CID B105E00D PID 000BB00C SCS-M7
T411C 000:163.820   CPU_ReadMem(32 bytes @ 0xE0001FE0)
T411C 000:164.864   [0][1]: E0001000 CID B105E00D PID 003BB002 DWT
T411C 000:164.878   CPU_ReadMem(32 bytes @ 0xE0002FE0)
T411C 000:165.922   [0][2]: E0002000 CID B105E00D PID 002BB003 FPB
T411C 000:165.935   CPU_ReadMem(32 bytes @ 0xE0000FE0)
T411C 000:167.001   [0][3]: E0000000 CID B105E00D PID 003BB001 ITM
T411C 000:167.014   CPU_ReadMem(32 bytes @ 0xE0040FE0)
T411C 000:168.175   [0][4]: E0040000 CID B105900D PID 000BB9A1 TPIU
T411C 000:168.192   CPU_ReadMem(32 bytes @ 0xE0041FE0)
T411C 000:169.140   [0][5]: E0041000 CID B105900D PID 000BB925 ETM
T411C 000:170.132 - 101.568ms returns 0x2BA01477
T411C 000:170.162 JLINK_GetDLLVersion()
T411C 000:170.173 - 0.010ms returns 86800
T411C 000:170.189 JLINK_CORE_GetFound()
T411C 000:170.198 - 0.009ms returns 0xE0000FF
T411C 000:170.273 JLINK_GetDebugInfo(0x100 = JLINKARM_ROM_TABLE_ADDR_INDEX)
T411C 000:170.285   Value=0xE00FF000
T411C 000:170.297 - 0.025ms returns 0
T411C 000:170.320 JLINK_GetDebugInfo(0x100 = JLINKARM_ROM_TABLE_ADDR_INDEX)
T411C 000:170.328   Value=0xE00FF000
T411C 000:170.340 - 0.021ms returns 0
T411C 000:170.351 JLINK_GetDebugInfo(0x101 = JLINKARM_DEBUG_INFO_ETM_ADDR_INDEX)
T411C 000:170.359   Value=0xE0041000
T411C 000:170.371 - 0.021ms returns 0
T411C 000:170.383 JLINK_ReadMemEx(0xE0041FD0, 0x20 Bytes, Flags = 0x02000004)
T411C 000:170.413   CPU_ReadMem(32 bytes @ 0xE0041FD0)
T411C 000:171.393   Data:  04 00 00 00 00 00 00 00 00 00 00 00 00 00 00 00 ...
T411C 000:171.411 - 1.029ms returns 32 (0x20)
T411C 000:171.424 JLINK_GetDebugInfo(0x102 = JLINKARM_DEBUG_INFO_MTB_ADDR_INDEX)
T411C 000:171.432   Value=0x00000000
T411C 000:171.443 - 0.019ms returns 0
T411C 000:171.513 JLINK_GetDebugInfo(0x103 = JLINKARM_DEBUG_INFO_TPIU_ADDR_INDEX)
T411C 000:171.526   Value=0xE0040000
T411C 000:171.540 - 0.028ms returns 0
T411C 000:171.552 JLINK_GetDebugInfo(0x104 = JLINKARM_DEBUG_INFO_ITM_ADDR_INDEX)
T411C 000:171.562   Value=0xE0000000
T411C 000:171.575 - 0.023ms returns 0
T411C 000:171.589 JLINK_GetDebugInfo(0x105 = JLINKARM_DEBUG_INFO_DWT_ADDR_INDEX)
T411C 000:171.599   Value=0xE0001000
T411C 000:171.610 - 0.021ms returns 0
T411C 000:171.619 JLINK_GetDebugInfo(0x106 = JLINKARM_DEBUG_INFO_FPB_ADDR_INDEX)
T411C 000:171.625   Value=0xE0002000
T411C 000:171.635 - 0.016ms returns 0
T411C 000:171.643 JLINK_GetDebugInfo(0x107 = JLINKARM_DEBUG_INFO_NVIC_ADDR_INDEX)
T411C 000:171.649   Value=0xE000E000
T411C 000:171.659 - 0.016ms returns 0
T411C 000:171.667 JLINK_GetDebugInfo(0x10C = JLINKARM_DEBUG_INFO_DBG_ADDR_INDEX)
T411C 000:171.673   Value=0xE000EDF0
T411C 000:171.683 - 0.016ms returns 0
T411C 000:171.692 JLINK_ReadMemU32(0xE000EF40, 0x1 Items)
T411C 000:171.707   CPU_ReadMem(4 bytes @ 0xE000EF40)
T411C 000:172.534   Data:  21 00 11 10
T411C 000:172.551 - 0.859ms returns 1 (0x1)
T411C 000:172.562 JLINK_ReadMemU32(0xE000EF44, 0x1 Items)
T411C 000:172.574   CPU_ReadMem(4 bytes @ 0xE000EF44)
T411C 000:173.403   Data:  11 00 00 11
T411C 000:173.414 - 0.852ms returns 1 (0x1)
T411C 000:173.423 JLINK_ReadMemU32(0xE000ED00, 0x1 Items)
T411C 000:173.432   CPU_ReadMem(4 bytes @ 0xE000ED00)
T411C 000:174.163   Data:  41 C2 0F 41
T411C 000:174.173   Debug reg: CPUID
T411C 000:174.182 - 0.759ms returns 1 (0x1)
T411C 000:174.192 JLINK_GetDebugInfo(0x10F = JLINKARM_DEBUG_INFO_HAS_CORTEX_M_SECURITY_EXT_INDEX)
T411C 000:174.199   Value=0x00000000
T411C 000:174.208 - 0.016ms returns 0
T411C 000:174.216 JLINK_HasError()
T411C 000:174.224 JLINK_SetResetType(JLINKARM_CM3_RESET_TYPE_NORMAL)
T411C 000:174.231 - 0.007ms returns JLINKARM_CM3_RESET_TYPE_NORMAL
T411C 000:174.239 JLINK_Reset()
T411C 000:174.250   JLINK_GetResetTypeDesc
T411C 000:174.257   - 0.006ms 
T411C 000:174.284   Reset type: NORMAL (https://wiki.segger.com/J-Link_Reset_Strategies)
T411C 000:174.294   CPU is running
T411C 000:174.304   CPU_WriteMem(4 bytes @ 0xE000EDF0)
T411C 000:175.115   CPU is running
T411C 000:175.127   CPU_WriteMem(4 bytes @ 0xE000EDFC)
T411C 000:175.944   Reset: Halt core after reset via DEMCR.VC_CORERESET.
T411C 000:176.946   Reset: Reset device via AIRCR.SYSRESETREQ.
T411C 000:176.958   CPU is running
T411C 000:176.969   CPU_WriteMem(4 bytes @ 0xE000ED0C)
T411C 000:232.354   CPU_ReadMem(4 bytes @ 0xE000EDF0)
T411C 000:233.307   CPU_ReadMem(4 bytes @ 0xE000EDF0)
T411C 000:237.888   CPU_WriteMem(4 bytes @ 0xE000EDFC)
T411C 000:244.179   CPU_ReadMem(4 bytes @ 0xE000EDF0)
T411C 000:249.002   CPU_WriteMem(4 bytes @ 0xE0002000)
T411C 000:250.020   CPU_ReadMem(4 bytes @ 0xE000EDFC)
T411C 000:250.945   CPU_ReadMem(4 bytes @ 0xE0001000)
T411C 000:251.942 - 77.703ms 
T411C 000:251.985 JLINK_HasError()
T411C 000:251.994 JLINK_ReadReg(R15 (PC))
T411C 000:252.004 - 0.009ms returns 0x080027D8
T411C 000:252.010 JLINK_ReadReg(XPSR)
T411C 000:252.016 - 0.005ms returns 0x01000000
T411C 000:252.024 JLINK_Halt()
T411C 000:252.029 - 0.005ms returns 0x00
T411C 000:252.040 JLINK_ReadMemU32(0xE000EDF0, 0x1 Items)
T411C 000:252.052   CPU_ReadMem(4 bytes @ 0xE000EDF0)
T411C 000:252.963   Data:  03 00 03 00
T411C 000:252.985   Debug reg: DHCSR
T411C 000:252.995 - 0.954ms returns 1 (0x1)
T411C 000:253.015 JLINK_WriteU32(0xE000EDF0, 0xA05F0003)
T411C 000:253.022   Debug reg: DHCSR
T411C 000:253.390   CPU_WriteMem(4 bytes @ 0xE000EDF0)
T411C 000:254.304 - 1.288ms returns 0 (0x00000000)
T411C 000:254.331 JLINK_WriteU32(0xE000EDFC, 0x01000000)
T411C 000:254.337   Debug reg: DEMCR
T411C 000:254.351   CPU_WriteMem(4 bytes @ 0xE000EDFC)
T411C 000:255.122 - 0.784ms returns 0 (0x00000000)
T411C 000:255.189 JLINK_GetHWStatus(...)
T411C 000:255.626 - 0.442ms returns 0
T411C 000:255.665 JLINK_GetNumBPUnits(Type = 0xFFFFFF00)
T411C 000:255.671 - 0.006ms returns 0x06
T411C 000:255.677 JLINK_GetNumBPUnits(Type = 0xF0)
T411C 000:255.682 - 0.004ms returns 0x2000
T411C 000:255.687 JLINK_GetNumWPUnits()
T411C 000:255.691 - 0.004ms returns 4
T411C 000:255.704 JLINK_GetSpeed()
T411C 000:255.709 - 0.005ms returns 4000
T411C 000:255.719 JLINK_ReadMemU32(0xE000E004, 0x1 Items)
T411C 000:255.729   CPU_ReadMem(4 bytes @ 0xE000E004)
T411C 000:256.561   Data:  02 00 00 00
T411C 000:256.579 - 0.859ms returns 1 (0x1)
T411C 000:256.587 JLINK_ReadMemU32(0xE000E004, 0x1 Items)
T411C 000:256.597   CPU_ReadMem(4 bytes @ 0xE000E004)
T411C 000:257.407   Data:  02 00 00 00
T411C 000:257.423 - 0.836ms returns 1 (0x1)
T411C 000:257.432 JLINK_WriteMemEx(0xE0001000, 0x0000001C Bytes, Flags = 0x02000004)
T411C 000:257.437   Data:  01 00 00 00 00 00 00 00 00 00 00 00 00 00 00 00 ...
T411C 000:257.464   CPU_WriteMem(28 bytes @ 0xE0001000)
T411C 000:258.538 - 1.105ms returns 0x1C
T411C 000:258.556 JLINK_HasError()
T411C 000:258.563 JLINK_ReadReg(R15 (PC))
T411C 000:258.571 - 0.007ms returns 0x080027D8
T411C 000:258.576 JLINK_ReadReg(XPSR)
T411C 000:258.582 - 0.005ms returns 0x01000000
T411C 000:536.286 JLINK_HasError()
T411C 000:536.314 JLINK_SetResetType(JLINKARM_CM3_RESET_TYPE_NORMAL)
T411C 000:536.320 - 0.005ms returns JLINKARM_CM3_RESET_TYPE_NORMAL
T411C 000:536.331 JLINK_Reset()
T411C 000:536.342   JLINK_GetResetTypeDesc
T411C 000:536.346   - 0.003ms 
T411C 000:536.361   Reset type: NORMAL (https://wiki.segger.com/J-Link_Reset_Strategies)
T411C 000:536.368   CPU_WriteMem(4 bytes @ 0xE000EDF0)
T411C 000:537.188   CPU_WriteMem(4 bytes @ 0xE000EDFC)
T411C 000:538.076   Reset: Halt core after reset via DEMCR.VC_CORERESET.
T411C 000:539.023   Reset: Reset device via AIRCR.SYSRESETREQ.
T411C 000:539.036   CPU_WriteMem(4 bytes @ 0xE000ED0C)
T411C 000:594.001   CPU_ReadMem(4 bytes @ 0xE000EDF0)
T411C 000:594.811   CPU_ReadMem(4 bytes @ 0xE000EDF0)
T411C 000:595.775   CPU_WriteMem(4 bytes @ 0xE000EDFC)
T411C 000:602.602   CPU_ReadMem(4 bytes @ 0xE000EDF0)
T411C 000:607.548   CPU_WriteMem(4 bytes @ 0xE0002000)
T411C 000:608.363   CPU_ReadMem(4 bytes @ 0xE000EDFC)
T411C 000:609.259   CPU_ReadMem(4 bytes @ 0xE0001000)
T411C 000:610.065 - 73.732ms 
T411C 000:610.252 JLINK_HasError()
T411C 000:610.265 JLINK_ReadReg(R15 (PC))
T411C 000:610.278 - 0.012ms returns 0x080027D8
T411C 000:610.286 JLINK_ReadReg(XPSR)
T411C 000:610.293 - 0.007ms returns 0x01000000
T411C 000:611.022 JLINK_ReadMemEx(0x080026D8, 0x3C Bytes, Flags = 0x02000000)
T411C 000:611.042   CPU_ReadMem(128 bytes @ 0x080026C0)
T411C 000:612.961    -- Updating C cache (128 bytes @ 0x080026C0)
T411C 000:612.974    -- Read from C cache (60 bytes @ 0x080026D8)
T411C 000:612.985   Data:  02 40 8D F8 0A 40 69 46 28 46 01 F0 87 F8 01 22 ...
T411C 000:612.994 - 1.972ms returns 60 (0x3C)
T411C 000:613.011 JLINK_ReadMemEx(0x08002714, 0x3C Bytes, Flags = 0x02000000)
T411C 000:613.020   CPU_ReadMem(64 bytes @ 0x08002740)
T411C 000:614.326    -- Updating C cache (64 bytes @ 0x08002740)
T411C 000:614.343    -- Read from C cache (60 bytes @ 0x08002714)
T411C 000:614.353   Data:  00 21 4F F0 80 40 01 F0 E3 B8 00 00 10 B5 04 46 ...
T411C 000:614.361 - 1.350ms returns 60 (0x3C)
T411C 000:614.378 JLINK_ReadMemEx(0x08002750, 0x3C Bytes, Flags = 0x02000000)
T411C 000:614.388   CPU_ReadMem(64 bytes @ 0x08002780)
T411C 000:615.870    -- Updating C cache (64 bytes @ 0x08002780)
T411C 000:615.882    -- Read from C cache (60 bytes @ 0x08002750)
T411C 000:615.889   Data:  48 61 00 23 8B 61 08 69 40 F0 01 00 08 61 08 69 ...
T411C 000:615.895 - 1.517ms returns 60 (0x3C)
T411C 000:615.907 JLINK_ReadMemEx(0x0800278C, 0x3C Bytes, Flags = 0x02000000)
T411C 000:615.913   CPU_ReadMem(64 bytes @ 0x080027C0)
T411C 000:617.359    -- Updating C cache (64 bytes @ 0x080027C0)
T411C 000:617.366    -- Read from C cache (60 bytes @ 0x0800278C)
T411C 000:617.373   Data:  08 69 C2 07 01 D0 C0 03 FA D5 08 69 20 F0 01 00 ...
T411C 000:617.379 - 1.472ms returns 60 (0x3C)
T411C 000:617.389 JLINK_ReadMemEx(0x080027C8, 0x38 Bytes, Flags = 0x02000000)
T411C 000:617.395    -- Read from C cache (56 bytes @ 0x080027C8)
T411C 000:617.401   Data:  03 D0 28 46 BD E8 70 40 D0 E7 70 BD 48 00 00 20 ...
T411C 000:617.407 - 0.017ms returns 56 (0x38)
T411C 000:617.412 JLINK_ReadMemEx(0x08002800, 0x4 Bytes, Flags = 0x02000000)
T411C 000:617.418   CPU_ReadMem(64 bytes @ 0x08002800)
T411C 000:618.720    -- Updating C cache (64 bytes @ 0x08002800)
T411C 000:618.729    -- Read from C cache (4 bytes @ 0x08002800)
T411C 000:618.736   Data:  28 49 08 60
T411C 000:618.744 - 1.332ms returns 4 (0x4)
T411C 002:524.226 JLINK_HasError()
T411C 002:524.264 JLINK_ReadReg(R0)
T411C 002:525.110 - 0.846ms returns 0x00000000
T411C 002:525.131 JLINK_ReadReg(R1)
T411C 002:525.136 - 0.005ms returns 0x00000000
T411C 002:525.141 JLINK_ReadReg(R2)
T411C 002:525.145 - 0.004ms returns 0x00000000
T411C 002:525.150 JLINK_ReadReg(R3)
T411C 002:525.154 - 0.004ms returns 0x00000000
T411C 002:525.158 JLINK_ReadReg(R4)
T411C 002:525.163 - 0.004ms returns 0x00000000
T411C 002:525.168 JLINK_ReadReg(R5)
T411C 002:525.172 - 0.004ms returns 0x00000000
T411C 002:525.176 JLINK_ReadReg(R6)
T411C 002:525.180 - 0.004ms returns 0x00000000
T411C 002:525.185 JLINK_ReadReg(R7)
T411C 002:525.189 - 0.003ms returns 0x00000000
T411C 002:525.254 JLINK_ReadReg(R8)
T411C 002:525.261 - 0.013ms returns 0x00000000
T411C 002:525.266 JLINK_ReadReg(R9)
T411C 002:525.270 - 0.004ms returns 0x00000000
T411C 002:525.275 JLINK_ReadReg(R10)
T411C 002:525.280 - 0.004ms returns 0x00000000
T411C 002:525.284 JLINK_ReadReg(R11)
T411C 002:525.288 - 0.004ms returns 0x00000000
T411C 002:525.293 JLINK_ReadReg(R12)
T411C 002:525.297 - 0.004ms returns 0x00000000
T411C 002:525.302 JLINK_ReadReg(R13 (SP))
T411C 002:525.306 - 0.004ms returns 0x2001E080
T411C 002:525.311 JLINK_ReadReg(R14)
T411C 002:525.315 - 0.004ms returns 0xFFFFFFFF
T411C 002:525.320 JLINK_ReadReg(R15 (PC))
T411C 002:525.324 - 0.004ms returns 0x080027D8
T411C 002:525.329 JLINK_ReadReg(XPSR)
T411C 002:525.333 - 0.004ms returns 0x01000000
T411C 002:525.338 JLINK_ReadReg(MSP)
T411C 002:525.342 - 0.004ms returns 0x2001E080
T411C 002:525.347 JLINK_ReadReg(PSP)
T411C 002:525.351 - 0.004ms returns 0x00000000
T411C 002:525.355 JLINK_ReadReg(CFBP)
T411C 002:525.359 - 0.004ms returns 0x00000000
T411C 002:525.364 JLINK_ReadReg(FPSCR)
T411C 002:530.720 - 5.355ms returns 0x00000000
T411C 002:530.737 JLINK_ReadReg(FPS0)
T411C 002:530.744 - 0.007ms returns 0x00000000
T411C 002:530.749 JLINK_ReadReg(FPS1)
T411C 002:530.753 - 0.004ms returns 0x00000000
T411C 002:530.758 JLINK_ReadReg(FPS2)
T411C 002:530.762 - 0.004ms returns 0x00000000
T411C 002:530.767 JLINK_ReadReg(FPS3)
T411C 002:530.771 - 0.004ms returns 0x00000000
T411C 002:530.776 JLINK_ReadReg(FPS4)
T411C 002:530.780 - 0.004ms returns 0x00000000
T411C 002:530.785 JLINK_ReadReg(FPS5)
T411C 002:530.789 - 0.004ms returns 0x00000000
T411C 002:530.793 JLINK_ReadReg(FPS6)
T411C 002:530.797 - 0.004ms returns 0x00000000
T411C 002:530.802 JLINK_ReadReg(FPS7)
T411C 002:530.806 - 0.004ms returns 0x00000000
T411C 002:530.811 JLINK_ReadReg(FPS8)
T411C 002:530.816 - 0.004ms returns 0x00000000
T411C 002:530.820 JLINK_ReadReg(FPS9)
T411C 002:530.824 - 0.004ms returns 0x00000000
T411C 002:530.829 JLINK_ReadReg(FPS10)
T411C 002:530.833 - 0.004ms returns 0x00000000
T411C 002:530.838 JLINK_ReadReg(FPS11)
T411C 002:530.842 - 0.004ms returns 0x00000000
T411C 002:530.847 JLINK_ReadReg(FPS12)
T411C 002:530.851 - 0.004ms returns 0x00000000
T411C 002:530.856 JLINK_ReadReg(FPS13)
T411C 002:530.860 - 0.004ms returns 0x00000000
T411C 002:530.864 JLINK_ReadReg(FPS14)
T411C 002:530.868 - 0.004ms returns 0x00000000
T411C 002:530.873 JLINK_ReadReg(FPS15)
T411C 002:530.877 - 0.004ms returns 0x00000000
T411C 002:530.882 JLINK_ReadReg(FPS16)
T411C 002:530.886 - 0.003ms returns 0x00000000
T411C 002:530.891 JLINK_ReadReg(FPS17)
T411C 002:530.895 - 0.004ms returns 0x00000000
T411C 002:530.900 JLINK_ReadReg(FPS18)
T411C 002:530.904 - 0.004ms returns 0x00000000
T411C 002:530.908 JLINK_ReadReg(FPS19)
T411C 002:530.912 - 0.003ms returns 0x00000000
T411C 002:530.917 JLINK_ReadReg(FPS20)
T411C 002:530.921 - 0.004ms returns 0x00000000
T411C 002:530.926 JLINK_ReadReg(FPS21)
T411C 002:530.930 - 0.004ms returns 0x00000000
T411C 002:530.935 JLINK_ReadReg(FPS22)
T411C 002:530.939 - 0.004ms returns 0x00000000
T411C 002:530.943 JLINK_ReadReg(FPS23)
T411C 002:530.948 - 0.004ms returns 0x00000000
T411C 002:530.952 JLINK_ReadReg(FPS24)
T411C 002:530.956 - 0.004ms returns 0x00000000
T411C 002:530.961 JLINK_ReadReg(FPS25)
T411C 002:530.965 - 0.004ms returns 0x00000000
T411C 002:530.970 JLINK_ReadReg(FPS26)
T411C 002:530.974 - 0.004ms returns 0x00000000
T411C 002:530.978 JLINK_ReadReg(FPS27)
T411C 002:530.982 - 0.004ms returns 0x00000000
T411C 002:530.987 JLINK_ReadReg(FPS28)
T411C 002:530.991 - 0.004ms returns 0x00000000
T411C 002:530.996 JLINK_ReadReg(FPS29)
T411C 002:531.000 - 0.004ms returns 0x00000000
T411C 002:531.005 JLINK_ReadReg(FPS30)
T411C 002:531.009 - 0.004ms returns 0x00000000
T411C 002:531.014 JLINK_ReadReg(FPS31)
T411C 002:531.018 - 0.004ms returns 0x00000000
T6994 002:628.713 JLINK_ReadMemEx(0x080027D8, 0x2 Bytes, Flags = 0x02000000)
T6994 002:628.745    -- Read from C cache (2 bytes @ 0x080027D8)
T6994 002:628.760   Data:  06 48
T6994 002:628.767 - 0.054ms returns 2 (0x2)
T6994 002:628.773 JLINK_HasError()
T6994 002:628.781 JLINK_SetBPEx(Addr = 0x08000254, Type = 0xFFFFFFF2)
T6994 002:628.790 - 0.008ms returns 0x00000001
T6994 002:628.795 JLINK_HasError()
T6994 002:628.800 JLINK_SetBPEx(Addr = 0x08000266, Type = 0xFFFFFFF2)
T6994 002:628.804 - 0.004ms returns 0x00000002
T6994 002:628.808 JLINK_HasError()
T6994 002:628.813 JLINK_HasError()
T6994 002:628.822 JLINK_Go()
T6994 002:628.834   CPU_WriteMem(4 bytes @ 0xE0002000)
T6994 002:629.578   CPU_WriteMem(4 bytes @ 0xE0002000)
T6994 002:630.295   CPU_ReadMem(4 bytes @ 0xE0001000)
T6994 002:631.293   CPU_WriteMem(4 bytes @ 0xE0002008)
T6994 002:631.317   CPU_WriteMem(4 bytes @ 0xE000200C)
T6994 002:631.326   CPU_WriteMem(4 bytes @ 0xE0002010)
T6994 002:631.334   CPU_WriteMem(4 bytes @ 0xE0002014)
T6994 002:631.342   CPU_WriteMem(4 bytes @ 0xE0002018)
T6994 002:631.350   CPU_WriteMem(4 bytes @ 0xE000201C)
T6994 002:633.972   CPU_WriteMem(4 bytes @ 0xE0001004)
T6994 002:635.599   Memory map 'after startup completion point' is active
T6994 002:635.616 - 6.793ms 
T6994 002:736.582 JLINK_HasError()
T6994 002:736.608 JLINK_IsHalted()
T6994 002:740.312 - 3.703ms returns TRUE
T6994 002:740.332 JLINK_HasError()
T6994 002:740.338 JLINK_Halt()
T6994 002:740.343 - 0.004ms returns 0x00
T6994 002:740.348 JLINK_IsHalted()
T6994 002:740.352 - 0.004ms returns TRUE
T6994 002:740.357 JLINK_IsHalted()
T6994 002:740.361 - 0.003ms returns TRUE
T6994 002:740.365 JLINK_IsHalted()
T6994 002:740.369 - 0.003ms returns TRUE
T6994 002:740.374 JLINK_HasError()
T6994 002:740.380 JLINK_ReadReg(R15 (PC))
T6994 002:740.386 - 0.006ms returns 0x08000254
T6994 002:740.391 JLINK_ReadReg(XPSR)
T6994 002:740.395 - 0.004ms returns 0x61000000
T6994 002:740.403 JLINK_HasError()
T6994 002:740.409 JLINK_ClrBPEx(BPHandle = 0x00000001)
T6994 002:740.414 - 0.005ms returns 0x00
T6994 002:740.419 JLINK_HasError()
T6994 002:740.424 JLINK_ClrBPEx(BPHandle = 0x00000002)
T6994 002:740.428 - 0.004ms returns 0x00
T6994 002:740.433 JLINK_HasError()
T6994 002:740.437 JLINK_HasError()
T6994 002:740.442 JLINK_ReadMemU32(0xE000ED30, 0x1 Items)
T6994 002:740.453   CPU_ReadMem(4 bytes @ 0xE000ED30)
T6994 002:741.149   Data:  03 00 00 00
T6994 002:741.156 - 0.713ms returns 1 (0x1)
T6994 002:741.162 JLINK_ReadMemU32(0xE0001028, 0x1 Items)
T6994 002:741.167   CPU_ReadMem(4 bytes @ 0xE0001028)
T6994 002:741.787   Data:  00 00 00 00
T6994 002:741.799   Debug reg: DWT_FUNC[0]
T6994 002:741.805 - 0.643ms returns 1 (0x1)
T6994 002:741.811 JLINK_ReadMemU32(0xE0001038, 0x1 Items)
T6994 002:741.819   CPU_ReadMem(4 bytes @ 0xE0001038)
T6994 002:742.554   Data:  00 02 00 00
T6994 002:742.560   Debug reg: DWT_FUNC[1]
T6994 002:742.566 - 0.754ms returns 1 (0x1)
T6994 002:742.572 JLINK_ReadMemU32(0xE0001048, 0x1 Items)
T6994 002:742.577   CPU_ReadMem(4 bytes @ 0xE0001048)
T6994 002:743.241   Data:  00 00 00 00
T6994 002:743.248   Debug reg: DWT_FUNC[2]
T6994 002:743.253 - 0.681ms returns 1 (0x1)
T6994 002:743.259 JLINK_ReadMemU32(0xE0001058, 0x1 Items)
T6994 002:743.264   CPU_ReadMem(4 bytes @ 0xE0001058)
T6994 002:744.073   Data:  00 00 00 00
T6994 002:744.080   Debug reg: DWT_FUNC[3]
T6994 002:744.086 - 0.827ms returns 1 (0x1)
T6994 002:744.166 JLINK_HasError()
T6994 002:744.172 JLINK_ReadReg(R0)
T6994 002:744.177 - 0.005ms returns 0x08000255
T6994 002:744.182 JLINK_ReadReg(R1)
T6994 002:744.186 - 0.004ms returns 0x2001E080
T6994 002:744.190 JLINK_ReadReg(R2)
T6994 002:744.194 - 0.004ms returns 0x00000000
T6994 002:744.199 JLINK_ReadReg(R3)
T6994 002:744.203 - 0.004ms returns 0x08030CF7
T6994 002:744.207 JLINK_ReadReg(R4)
T6994 002:744.211 - 0.003ms returns 0x08071BD4
T6994 002:744.216 JLINK_ReadReg(R5)
T6994 002:744.220 - 0.004ms returns 0x08071BD4
T6994 002:744.225 JLINK_ReadReg(R6)
T6994 002:744.229 - 0.004ms returns 0x00000000
T6994 002:744.233 JLINK_ReadReg(R7)
T6994 002:744.237 - 0.003ms returns 0x00000000
T6994 002:744.242 JLINK_ReadReg(R8)
T6994 002:744.246 - 0.004ms returns 0x00000000
T6994 002:744.257 JLINK_ReadReg(R9)
T6994 002:744.261 - 0.004ms returns 0x00000000
T6994 002:744.266 JLINK_ReadReg(R10)
T6994 002:744.270 - 0.004ms returns 0x00000000
T6994 002:744.275 JLINK_ReadReg(R11)
T6994 002:744.279 - 0.003ms returns 0x00000000
T6994 002:744.284 JLINK_ReadReg(R12)
T6994 002:744.288 - 0.003ms returns 0x00000000
T6994 002:744.292 JLINK_ReadReg(R13 (SP))
T6994 002:744.296 - 0.004ms returns 0x2001E080
T6994 002:744.301 JLINK_ReadReg(R14)
T6994 002:744.305 - 0.004ms returns 0x08030B49
T6994 002:744.310 JLINK_ReadReg(R15 (PC))
T6994 002:744.314 - 0.004ms returns 0x08000254
T6994 002:744.318 JLINK_ReadReg(XPSR)
T6994 002:744.322 - 0.004ms returns 0x61000000
T6994 002:744.327 JLINK_ReadReg(MSP)
T6994 002:744.331 - 0.003ms returns 0x2001E080
T6994 002:744.336 JLINK_ReadReg(PSP)
T6994 002:744.340 - 0.004ms returns 0x00000000
T6994 002:744.344 JLINK_ReadReg(CFBP)
T6994 002:744.348 - 0.003ms returns 0x00000000
T6994 002:744.353 JLINK_ReadReg(FPSCR)
T6994 002:749.663 - 5.309ms returns 0x00000000
T6994 002:749.680 JLINK_ReadReg(FPS0)
T6994 002:749.687 - 0.006ms returns 0x00000000
T6994 002:749.692 JLINK_ReadReg(FPS1)
T6994 002:749.696 - 0.004ms returns 0x00000000
T6994 002:749.701 JLINK_ReadReg(FPS2)
T6994 002:749.705 - 0.004ms returns 0x00000000
T6994 002:749.710 JLINK_ReadReg(FPS3)
T6994 002:749.714 - 0.004ms returns 0x00000000
T6994 002:749.718 JLINK_ReadReg(FPS4)
T6994 002:749.722 - 0.004ms returns 0x00000000
T6994 002:749.727 JLINK_ReadReg(FPS5)
T6994 002:749.731 - 0.004ms returns 0x00000000
T6994 002:749.736 JLINK_ReadReg(FPS6)
T6994 002:749.740 - 0.003ms returns 0x00000000
T6994 002:749.744 JLINK_ReadReg(FPS7)
T6994 002:749.748 - 0.004ms returns 0x00000000
T6994 002:749.753 JLINK_ReadReg(FPS8)
T6994 002:749.757 - 0.004ms returns 0x00000000
T6994 002:749.761 JLINK_ReadReg(FPS9)
T6994 002:749.765 - 0.004ms returns 0x00000000
T6994 002:749.770 JLINK_ReadReg(FPS10)
T6994 002:749.774 - 0.004ms returns 0x00000000
T6994 002:749.779 JLINK_ReadReg(FPS11)
T6994 002:749.783 - 0.004ms returns 0x00000000
T6994 002:749.788 JLINK_ReadReg(FPS12)
T6994 002:749.792 - 0.003ms returns 0x00000000
T6994 002:749.796 JLINK_ReadReg(FPS13)
T6994 002:749.800 - 0.003ms returns 0x00000000
T6994 002:749.805 JLINK_ReadReg(FPS14)
T6994 002:749.809 - 0.003ms returns 0x00000000
T6994 002:749.813 JLINK_ReadReg(FPS15)
T6994 002:749.817 - 0.004ms returns 0x00000000
T6994 002:749.822 JLINK_ReadReg(FPS16)
T6994 002:749.826 - 0.003ms returns 0x00000000
T6994 002:749.830 JLINK_ReadReg(FPS17)
T6994 002:749.834 - 0.004ms returns 0x00000000
T6994 002:749.839 JLINK_ReadReg(FPS18)
T6994 002:749.843 - 0.003ms returns 0x00000000
T6994 002:749.847 JLINK_ReadReg(FPS19)
T6994 002:749.851 - 0.003ms returns 0x00000000
T6994 002:749.856 JLINK_ReadReg(FPS20)
T6994 002:749.860 - 0.004ms returns 0x00000000
T6994 002:749.864 JLINK_ReadReg(FPS21)
T6994 002:749.868 - 0.003ms returns 0x00000000
T6994 002:749.873 JLINK_ReadReg(FPS22)
T6994 002:749.878 - 0.004ms returns 0x00000000
T6994 002:749.882 JLINK_ReadReg(FPS23)
T6994 002:749.886 - 0.003ms returns 0x00000000
T6994 002:749.890 JLINK_ReadReg(FPS24)
T6994 002:749.894 - 0.003ms returns 0x00000000
T6994 002:749.899 JLINK_ReadReg(FPS25)
T6994 002:749.903 - 0.003ms returns 0x00000000
T6994 002:749.908 JLINK_ReadReg(FPS26)
T6994 002:749.912 - 0.004ms returns 0x00000000
T6994 002:749.916 JLINK_ReadReg(FPS27)
T6994 002:749.920 - 0.003ms returns 0x00000000
T6994 002:749.925 JLINK_ReadReg(FPS28)
T6994 002:749.929 - 0.004ms returns 0x00000000
T6994 002:749.933 JLINK_ReadReg(FPS29)
T6994 002:749.937 - 0.004ms returns 0x00000000
T6994 002:749.942 JLINK_ReadReg(FPS30)
T6994 002:749.946 - 0.003ms returns 0x00000000
T6994 002:749.950 JLINK_ReadReg(FPS31)
T6994 002:749.954 - 0.003ms returns 0x00000000
T411C 002:758.713 JLINK_ReadMemEx(0x08000188, 0x3C Bytes, Flags = 0x02000000)
T411C 002:758.752   CPU_ReadMem(128 bytes @ 0x08000180)
T411C 002:760.807    -- Updating C cache (128 bytes @ 0x08000180)
T411C 002:760.823    -- Read from C cache (60 bytes @ 0x08000188)
T411C 002:760.830   Data:  DF F8 0C D0 30 F0 CE FC 00 48 00 47 55 02 00 08 ...
T411C 002:760.838 - 2.124ms returns 60 (0x3C)
T411C 002:760.850 JLINK_ReadMemEx(0x080001C4, 0x3C Bytes, Flags = 0x02000000)
T411C 002:760.855    -- Read from C cache (60 bytes @ 0x080001C4)
T411C 002:760.862   Data:  08 88 62 B6 61 B6 BF F3 4F 8F BF F3 6F 8F 00 DF ...
T411C 002:760.868 - 0.017ms returns 60 (0x3C)
T411C 002:760.875 JLINK_ReadMemEx(0x08000200, 0x3C Bytes, Flags = 0x02000000)
T411C 002:760.881   CPU_ReadMem(64 bytes @ 0x08000200)
T411C 002:762.291    -- Updating C cache (64 bytes @ 0x08000200)
T411C 002:762.303    -- Read from C cache (60 bytes @ 0x08000200)
T411C 002:762.310   Data:  08 BF 20 ED 10 8A 20 E9 F0 4F 10 60 08 B4 4F F0 ...
T411C 002:762.316 - 1.440ms returns 60 (0x3C)
T411C 002:762.326 JLINK_ReadMemEx(0x0800023E, 0x2 Bytes, Flags = 0x02000000)
T411C 002:762.332    -- Read from C cache (2 bytes @ 0x0800023E)
T411C 002:762.338   Data:  80 F3
T411C 002:762.344 - 0.017ms returns 2 (0x2)
T411C 002:762.349 JLINK_ReadMemEx(0x08000240, 0x3C Bytes, Flags = 0x02000000)
T411C 002:762.355   CPU_ReadMem(64 bytes @ 0x08000240)
T411C 002:763.630    -- Updating C cache (64 bytes @ 0x08000240)
T411C 002:763.648    -- Read from C cache (60 bytes @ 0x08000240)
T411C 002:763.657   Data:  09 88 BF F3 6F 8F 70 47 34 05 00 20 EF F3 05 80 ...
T411C 002:763.663 - 1.313ms returns 60 (0x3C)
T6994 003:961.104 JLINK_ReadMemEx(0x08000254, 0x2 Bytes, Flags = 0x02000000)
T6994 003:961.150    -- Read from C cache (2 bytes @ 0x08000254)
T6994 003:961.157   Data:  4F F4
T6994 003:961.164 - 0.060ms returns 2 (0x2)
T6994 003:961.171 JLINK_HasError()
T6994 003:961.180 JLINK_SetBPEx(Addr = 0x08000266, Type = 0xFFFFFFF2)
T6994 003:961.188 - 0.008ms returns 0x00000003
T6994 003:961.193 JLINK_HasError()
T6994 003:961.198 JLINK_HasError()
T6994 003:961.203 JLINK_Go()
T6994 003:962.051   CPU_WriteMem(4 bytes @ 0xE0002000)
T6994 003:962.912   CPU_ReadMem(4 bytes @ 0xE0001000)
T6994 003:963.681   CPU_WriteMem(4 bytes @ 0xE0002008)
T6994 003:963.709   CPU_WriteMem(4 bytes @ 0xE000200C)
T6994 003:965.731 - 4.528ms 
T6994 004:066.678 JLINK_HasError()
T6994 004:066.709 JLINK_IsHalted()
T6994 004:067.374 - 0.663ms returns FALSE
T6994 004:168.128 JLINK_HasError()
T6994 004:168.156 JLINK_IsHalted()
T6994 004:168.796 - 0.638ms returns FALSE
T6994 004:269.221 JLINK_HasError()
T6994 004:269.263 JLINK_IsHalted()
T6994 004:273.099 - 3.835ms returns TRUE
T6994 004:273.118 JLINK_HasError()
T6994 004:273.123 JLINK_Halt()
T6994 004:273.127 - 0.003ms returns 0x00
T6994 004:273.131 JLINK_IsHalted()
T6994 004:273.135 - 0.003ms returns TRUE
T6994 004:273.139 JLINK_IsHalted()
T6994 004:273.143 - 0.003ms returns TRUE
T6994 004:273.147 JLINK_IsHalted()
T6994 004:273.151 - 0.003ms returns TRUE
T6994 004:273.156 JLINK_HasError()
T6994 004:273.161 JLINK_ReadReg(R15 (PC))
T6994 004:273.167 - 0.006ms returns 0x08000266
T6994 004:273.171 JLINK_ReadReg(XPSR)
T6994 004:273.175 - 0.003ms returns 0x61000000
T6994 004:273.183 JLINK_HasError()
T6994 004:273.187 JLINK_ClrBPEx(BPHandle = 0x00000003)
T6994 004:273.192 - 0.004ms returns 0x00
T6994 004:273.196 JLINK_HasError()
T6994 004:273.201 JLINK_HasError()
T6994 004:273.205 JLINK_ReadMemU32(0xE000ED30, 0x1 Items)
T6994 004:273.215   CPU_ReadMem(4 bytes @ 0xE000ED30)
T6994 004:273.936   Data:  03 00 00 00
T6994 004:273.943 - 0.737ms returns 1 (0x1)
T6994 004:273.948 JLINK_ReadMemU32(0xE0001028, 0x1 Items)
T6994 004:273.954   CPU_ReadMem(4 bytes @ 0xE0001028)
T6994 004:274.638   Data:  00 00 00 00
T6994 004:274.645   Debug reg: DWT_FUNC[0]
T6994 004:274.651 - 0.702ms returns 1 (0x1)
T6994 004:274.657 JLINK_ReadMemU32(0xE0001038, 0x1 Items)
T6994 004:274.662   CPU_ReadMem(4 bytes @ 0xE0001038)
T6994 004:275.419   Data:  00 02 00 00
T6994 004:275.436   Debug reg: DWT_FUNC[1]
T6994 004:275.441 - 0.785ms returns 1 (0x1)
T6994 004:275.447 JLINK_ReadMemU32(0xE0001048, 0x1 Items)
T6994 004:275.453   CPU_ReadMem(4 bytes @ 0xE0001048)
T6994 004:276.285   Data:  00 00 00 00
T6994 004:276.293   Debug reg: DWT_FUNC[2]
T6994 004:276.300 - 0.852ms returns 1 (0x1)
T6994 004:276.306 JLINK_ReadMemU32(0xE0001058, 0x1 Items)
T6994 004:276.313   CPU_ReadMem(4 bytes @ 0xE0001058)
T6994 004:277.019   Data:  00 00 00 00
T6994 004:277.027   Debug reg: DWT_FUNC[3]
T6994 004:277.080 - 0.773ms returns 1 (0x1)
T6994 004:277.194 JLINK_HasError()
T6994 004:277.210 JLINK_ReadReg(R0)
T6994 004:277.219 - 0.008ms returns 0x6C000000
T6994 004:277.225 JLINK_ReadReg(R1)
T6994 004:277.230 - 0.005ms returns 0x00012C00
T6994 004:277.235 JLINK_ReadReg(R2)
T6994 004:277.240 - 0.004ms returns 0x0000013F
T6994 004:277.246 JLINK_ReadReg(R3)
T6994 004:277.251 - 0.004ms returns 0x000000EF
T6994 004:277.256 JLINK_ReadReg(R4)
T6994 004:277.261 - 0.004ms returns 0x08071BD4
T6994 004:277.267 JLINK_ReadReg(R5)
T6994 004:277.271 - 0.004ms returns 0x08071BD4
T6994 004:277.277 JLINK_ReadReg(R6)
T6994 004:277.282 - 0.005ms returns 0x00000000
T6994 004:277.287 JLINK_ReadReg(R7)
T6994 004:277.292 - 0.004ms returns 0x00000000
T6994 004:277.297 JLINK_ReadReg(R8)
T6994 004:277.303 - 0.005ms returns 0x00000000
T6994 004:277.308 JLINK_ReadReg(R9)
T6994 004:277.313 - 0.004ms returns 0x00000000
T6994 004:277.318 JLINK_ReadReg(R10)
T6994 004:277.323 - 0.004ms returns 0x00000000
T6994 004:277.329 JLINK_ReadReg(R11)
T6994 004:277.333 - 0.004ms returns 0x00000000
T6994 004:277.339 JLINK_ReadReg(R12)
T6994 004:277.344 - 0.004ms returns 0x00000003
T6994 004:277.349 JLINK_ReadReg(R13 (SP))
T6994 004:277.354 - 0.005ms returns 0x2001E080
T6994 004:277.360 JLINK_ReadReg(R14)
T6994 004:277.365 - 0.004ms returns 0x08001331
T6994 004:277.370 JLINK_ReadReg(R15 (PC))
T6994 004:277.375 - 0.005ms returns 0x08000266
T6994 004:277.381 JLINK_ReadReg(XPSR)
T6994 004:277.386 - 0.004ms returns 0x61000000
T6994 004:277.391 JLINK_ReadReg(MSP)
T6994 004:277.396 - 0.004ms returns 0x2001E080
T6994 004:277.401 JLINK_ReadReg(PSP)
T6994 004:277.406 - 0.004ms returns 0x00000000
T6994 004:277.412 JLINK_ReadReg(CFBP)
T6994 004:277.417 - 0.005ms returns 0x00000000
T6994 004:277.423 JLINK_ReadReg(FPSCR)
T6994 004:282.889 - 5.465ms returns 0x00000000
T6994 004:282.902 JLINK_ReadReg(FPS0)
T6994 004:282.907 - 0.005ms returns 0x00000000
T6994 004:282.912 JLINK_ReadReg(FPS1)
T6994 004:282.916 - 0.003ms returns 0x00000000
T6994 004:282.920 JLINK_ReadReg(FPS2)
T6994 004:282.924 - 0.003ms returns 0x00000000
T6994 004:282.928 JLINK_ReadReg(FPS3)
T6994 004:282.932 - 0.003ms returns 0x00000000
T6994 004:282.937 JLINK_ReadReg(FPS4)
T6994 004:282.940 - 0.003ms returns 0x00000000
T6994 004:282.945 JLINK_ReadReg(FPS5)
T6994 004:282.949 - 0.003ms returns 0x00000000
T6994 004:282.953 JLINK_ReadReg(FPS6)
T6994 004:282.957 - 0.003ms returns 0x00000000
T6994 004:282.961 JLINK_ReadReg(FPS7)
T6994 004:282.965 - 0.003ms returns 0x00000000
T6994 004:282.969 JLINK_ReadReg(FPS8)
T6994 004:282.973 - 0.003ms returns 0x00000000
T6994 004:282.977 JLINK_ReadReg(FPS9)
T6994 004:282.981 - 0.003ms returns 0x00000000
T6994 004:282.985 JLINK_ReadReg(FPS10)
T6994 004:282.989 - 0.003ms returns 0x00000000
T6994 004:282.994 JLINK_ReadReg(FPS11)
T6994 004:282.998 - 0.003ms returns 0x00000000
T6994 004:283.002 JLINK_ReadReg(FPS12)
T6994 004:283.006 - 0.003ms returns 0x00000000
T6994 004:283.011 JLINK_ReadReg(FPS13)
T6994 004:283.015 - 0.003ms returns 0x00000000
T6994 004:283.019 JLINK_ReadReg(FPS14)
T6994 004:283.023 - 0.003ms returns 0x00000000
T6994 004:283.027 JLINK_ReadReg(FPS15)
T6994 004:283.031 - 0.003ms returns 0x00000000
T6994 004:283.035 JLINK_ReadReg(FPS16)
T6994 004:283.039 - 0.003ms returns 0x00000000
T6994 004:283.043 JLINK_ReadReg(FPS17)
T6994 004:283.047 - 0.003ms returns 0x00000000
T6994 004:283.052 JLINK_ReadReg(FPS18)
T6994 004:283.055 - 0.003ms returns 0x00000000
T6994 004:283.060 JLINK_ReadReg(FPS19)
T6994 004:283.064 - 0.003ms returns 0x00000000
T6994 004:283.068 JLINK_ReadReg(FPS20)
T6994 004:283.072 - 0.003ms returns 0x00000000
T6994 004:283.076 JLINK_ReadReg(FPS21)
T6994 004:283.086 - 0.009ms returns 0x00000000
T6994 004:283.090 JLINK_ReadReg(FPS22)
T6994 004:283.094 - 0.003ms returns 0x00000000
T6994 004:283.098 JLINK_ReadReg(FPS23)
T6994 004:283.103 - 0.004ms returns 0x00000000
T6994 004:283.107 JLINK_ReadReg(FPS24)
T6994 004:283.111 - 0.003ms returns 0x00000000
T6994 004:283.115 JLINK_ReadReg(FPS25)
T6994 004:283.119 - 0.003ms returns 0x00000000
T6994 004:283.123 JLINK_ReadReg(FPS26)
T6994 004:283.127 - 0.003ms returns 0x00000000
T6994 004:283.141 JLINK_ReadReg(FPS27)
T6994 004:283.145 - 0.004ms returns 0x00000000
T6994 004:283.150 JLINK_ReadReg(FPS28)
T6994 004:283.154 - 0.003ms returns 0x00000000
T6994 004:283.158 JLINK_ReadReg(FPS29)
T6994 004:283.162 - 0.003ms returns 0x00000000
T6994 004:283.167 JLINK_ReadReg(FPS30)
T6994 004:283.170 - 0.003ms returns 0x00000000
T6994 004:283.175 JLINK_ReadReg(FPS31)
T6994 004:283.179 - 0.003ms returns 0x00000000
T411C 004:292.193 JLINK_ReadMemEx(0x08000262, 0x2 Bytes, Flags = 0x02000000)
T411C 004:292.222   CPU_ReadMem(64 bytes @ 0x08000240)
T411C 004:293.673    -- Updating C cache (64 bytes @ 0x08000240)
T411C 004:293.680    -- Read from C cache (2 bytes @ 0x08000262)
T411C 004:293.686   Data:  01 F0
T411C 004:293.691 - 1.498ms returns 2 (0x2)
T411C 004:293.698 JLINK_ReadMemEx(0x08000264, 0x3C Bytes, Flags = 0x02000000)
T411C 004:293.703   CPU_ReadMem(64 bytes @ 0x08000280)
T411C 004:295.029    -- Updating C cache (64 bytes @ 0x08000280)
T411C 004:295.036    -- Read from C cache (60 bytes @ 0x08000264)
T411C 004:295.041   Data:  A3 F9 02 F0 48 F8 01 F0 81 FA 02 F0 A9 F8 53 21 ...
T411C 004:295.046 - 1.348ms returns 60 (0x3C)
T6994 005:543.512 JLINK_ReadMemEx(0x08000266, 0x2 Bytes, Flags = 0x02000000)
T6994 005:543.559    -- Read from C cache (2 bytes @ 0x08000266)
T6994 005:543.566   Data:  02 F0
T6994 005:543.574 - 0.062ms returns 2 (0x2)
T6994 005:543.580 JLINK_HasError()
T6994 005:543.590 JLINK_Step()
T6994 005:544.374    -- Read from C cache (2 bytes @ 0x08000266)
T6994 005:544.394   CPU_ReadMem(4 bytes @ 0xE000ED18)
T6994 005:545.328   CPU_WriteMem(4 bytes @ 0xE000ED18)
T6994 005:546.210   CPU_ReadMem(4 bytes @ 0xE000ED18)
T6994 005:547.070   CPU_WriteMem(4 bytes @ 0xE000ED18)
T6994 005:547.955   CPU_ReadMem(4 bytes @ 0xE0001004)
T6994 005:548.782    -- Read from C cache (2 bytes @ 0x08000268)
T6994 005:548.792   -- Simulated
T6994 005:548.799 - 5.208ms returns 0
T6994 005:548.809 JLINK_HasError()
T6994 005:548.815 JLINK_ReadReg(R15 (PC))
T6994 005:548.823 - 0.007ms returns 0x080022FA
T6994 005:548.827 JLINK_ReadReg(XPSR)
T6994 005:548.832 - 0.004ms returns 0x61000000
T6994 005:548.842 JLINK_HasError()
T6994 005:548.848 JLINK_SetBPEx(Addr = 0x0800026A, Type = 0xFFFFFFF2)
T6994 005:548.853 - 0.006ms returns 0x00000004
T6994 005:548.858 JLINK_HasError()
T6994 005:548.863 JLINK_SetBPEx(Addr = 0x08000266, Type = 0xFFFFFFF2)
T6994 005:548.867 - 0.004ms returns 0x00000005
T6994 005:548.872 JLINK_HasError()
T6994 005:548.876 JLINK_HasError()
T6994 005:548.881 JLINK_Go()
T6994 005:548.889   CPU_WriteMem(4 bytes @ 0xE0002000)
T6994 005:549.709   CPU_WriteMem(4 bytes @ 0xE0002000)
T6994 005:550.500   CPU_ReadMem(4 bytes @ 0xE0001000)
T6994 005:551.191   CPU_WriteMem(4 bytes @ 0xE0002008)
T6994 005:551.201   CPU_WriteMem(4 bytes @ 0xE000200C)
T6994 005:552.335   CPU_WriteMem(4 bytes @ 0xE0001004)
T6994 005:555.059 - 6.177ms 
T6994 005:655.127 JLINK_HasError()
T6994 005:655.169 JLINK_IsHalted()
T6994 005:655.906 - 0.736ms returns FALSE
T6994 005:756.471 JLINK_HasError()
T6994 005:756.523 JLINK_IsHalted()
T6994 005:757.350 - 0.824ms returns FALSE
T6994 005:857.639 JLINK_HasError()
T6994 005:857.698 JLINK_IsHalted()
T6994 005:858.557 - 0.858ms returns FALSE
T6994 005:959.209 JLINK_HasError()
T6994 005:959.247 JLINK_IsHalted()
T6994 005:960.303 - 1.055ms returns FALSE
T6994 006:061.108 JLINK_HasError()
T6994 006:061.139 JLINK_IsHalted()
T6994 006:062.289 - 1.147ms returns FALSE
T6994 006:162.641 JLINK_HasError()
T6994 006:162.676 JLINK_IsHalted()
T6994 006:163.613 - 0.935ms returns FALSE
T6994 006:264.409 JLINK_HasError()
T6994 006:264.443 JLINK_IsHalted()
T6994 006:265.481 - 1.037ms returns FALSE
T6994 006:366.477 JLINK_HasError()
T6994 006:366.530 JLINK_IsHalted()
T6994 006:367.654 - 1.123ms returns FALSE
T6994 006:468.121 JLINK_HasError()
T6994 006:468.159 JLINK_IsHalted()
T6994 006:469.310 - 1.151ms returns FALSE
T6994 006:570.178 JLINK_HasError()
T6994 006:570.210 JLINK_IsHalted()
T6994 006:571.136 - 0.925ms returns FALSE
T6994 006:671.890 JLINK_HasError()
T6994 006:671.918 JLINK_IsHalted()
T6994 006:672.714 - 0.794ms returns FALSE
T6994 006:772.860 JLINK_HasError()
T6994 006:772.893 JLINK_IsHalted()
T6994 006:774.033 - 1.139ms returns FALSE
T6994 006:874.125 JLINK_HasError()
T6994 006:874.155 JLINK_IsHalted()
T6994 006:874.791 - 0.635ms returns FALSE
T6994 006:976.542 JLINK_HasError()
T6994 006:976.589 JLINK_IsHalted()
T6994 006:977.525 - 0.935ms returns FALSE
T6994 007:078.340 JLINK_HasError()
T6994 007:078.370 JLINK_IsHalted()
T6994 007:079.094 - 0.723ms returns FALSE
T6994 007:179.749 JLINK_HasError()
T6994 007:179.784 JLINK_IsHalted()
T6994 007:180.593 - 0.808ms returns FALSE
T6994 007:281.365 JLINK_HasError()
T6994 007:281.403 JLINK_IsHalted()
T6994 007:282.164 - 0.759ms returns FALSE
T6994 007:382.854 JLINK_HasError()
T6994 007:382.885 JLINK_IsHalted()
T6994 007:383.665 - 0.780ms returns FALSE
T6994 007:484.089 JLINK_HasError()
T6994 007:484.130 JLINK_IsHalted()
T6994 007:485.044 - 0.912ms returns FALSE
T6994 007:585.457 JLINK_HasError()
T6994 007:585.492 JLINK_IsHalted()
T6994 007:586.441 - 0.948ms returns FALSE
T6994 007:687.678 JLINK_HasError()
T6994 007:687.710 JLINK_IsHalted()
T6994 007:688.582 - 0.871ms returns FALSE
T6994 007:788.877 JLINK_HasError()
T6994 007:788.903 JLINK_IsHalted()
T6994 007:790.062 - 1.158ms returns FALSE
T6994 007:890.765 JLINK_HasError()
T6994 007:890.819 JLINK_IsHalted()
T6994 007:891.915 - 1.094ms returns FALSE
T6994 007:993.058 JLINK_HasError()
T6994 007:993.092 JLINK_IsHalted()
T6994 007:994.075 - 0.982ms returns FALSE
T6994 008:094.158 JLINK_HasError()
T6994 008:094.197 JLINK_IsHalted()
T6994 008:094.993 - 0.795ms returns FALSE
T6994 008:196.497 JLINK_HasError()
T6994 008:196.542 JLINK_IsHalted()
T6994 008:197.331 - 0.788ms returns FALSE
T6994 008:298.248 JLINK_HasError()
T6994 008:298.289 JLINK_IsHalted()
T6994 008:299.094 - 0.804ms returns FALSE
T6994 008:399.481 JLINK_HasError()
T6994 008:399.529 JLINK_IsHalted()
T6994 008:400.336 - 0.806ms returns FALSE
T6994 008:501.006 JLINK_HasError()
T6994 008:501.043 JLINK_IsHalted()
T6994 008:501.981 - 0.936ms returns FALSE
T6994 008:602.182 JLINK_HasError()
T6994 008:602.213 JLINK_IsHalted()
T6994 008:603.390 - 1.176ms returns FALSE
T6994 008:703.970 JLINK_HasError()
T6994 008:704.006 JLINK_IsHalted()
T6994 008:704.926 - 0.919ms returns FALSE
T6994 008:806.527 JLINK_HasError()
T6994 008:806.555 JLINK_IsHalted()
T6994 008:807.210 - 0.654ms returns FALSE
T6994 008:907.443 JLINK_HasError()
T6994 008:907.471 JLINK_IsHalted()
T6994 008:908.385 - 0.913ms returns FALSE
T6994 009:008.758 JLINK_HasError()
T6994 009:008.790 JLINK_IsHalted()
T6994 009:009.757 - 0.966ms returns FALSE
T6994 009:109.925 JLINK_HasError()
T6994 009:109.956 JLINK_IsHalted()
T6994 009:110.603 - 0.646ms returns FALSE
T6994 009:211.302 JLINK_HasError()
T6994 009:211.332 JLINK_IsHalted()
T6994 009:212.082 - 0.748ms returns FALSE
T6994 009:312.794 JLINK_HasError()
T6994 009:312.833 JLINK_IsHalted()
T6994 009:313.526 - 0.692ms returns FALSE
T6994 009:413.942 JLINK_HasError()
T6994 009:413.990 JLINK_IsHalted()
T6994 009:415.052 - 1.061ms returns FALSE
T6994 009:515.545 JLINK_HasError()
T6994 009:515.582 JLINK_IsHalted()
T6994 009:516.395 - 0.812ms returns FALSE
T6994 009:616.666 JLINK_HasError()
T6994 009:616.707 JLINK_IsHalted()
T6994 009:617.717 - 1.008ms returns FALSE
T6994 009:718.664 JLINK_HasError()
T6994 009:718.716 JLINK_IsHalted()
T6994 009:719.538 - 0.821ms returns FALSE
T6994 009:821.189 JLINK_HasError()
T6994 009:821.261 JLINK_IsHalted()
T6994 009:822.178 - 0.916ms returns FALSE
T6994 009:923.175 JLINK_HasError()
T6994 009:923.207 JLINK_IsHalted()
T6994 009:924.250 - 1.041ms returns FALSE
T6994 010:025.374 JLINK_HasError()
T6994 010:025.403 JLINK_IsHalted()
T6994 010:026.128 - 0.724ms returns FALSE
T6994 010:126.805 JLINK_HasError()
T6994 010:126.837 JLINK_IsHalted()
T6994 010:127.906 - 1.063ms returns FALSE
T6994 010:228.661 JLINK_HasError()
T6994 010:228.694 JLINK_IsHalted()
T6994 010:230.023 - 1.328ms returns FALSE
T6994 010:330.449 JLINK_HasError()
T6994 010:330.515 JLINK_IsHalted()
T6994 010:331.409 - 0.892ms returns FALSE
T6994 010:431.592 JLINK_HasError()
T6994 010:431.635 JLINK_IsHalted()
T6994 010:432.594 - 0.957ms returns FALSE
T6994 010:533.300 JLINK_HasError()
T6994 010:533.327 JLINK_IsHalted()
T6994 010:534.101 - 0.773ms returns FALSE
T6994 010:634.288 JLINK_HasError()
T6994 010:634.322 JLINK_IsHalted()
T6994 010:635.302 - 0.978ms returns FALSE
T6994 010:735.518 JLINK_HasError()
T6994 010:735.568 JLINK_IsHalted()
T6994 010:736.618 - 1.047ms returns FALSE
T6994 010:836.907 JLINK_HasError()
T6994 010:836.963 JLINK_IsHalted()
T6994 010:838.145 - 1.180ms returns FALSE
T6994 010:938.267 JLINK_HasError()
T6994 010:938.310 JLINK_IsHalted()
T6994 010:939.302 - 0.990ms returns FALSE
T6994 011:039.917 JLINK_HasError()
T6994 011:039.966 JLINK_IsHalted()
T6994 011:041.095 - 1.128ms returns FALSE
T6994 011:141.979 JLINK_HasError()
T6994 011:142.014 JLINK_IsHalted()
T6994 011:143.075 - 1.060ms returns FALSE
T6994 011:244.074 JLINK_HasError()
T6994 011:244.109 JLINK_IsHalted()
T6994 011:244.903 - 0.793ms returns FALSE
T6994 011:345.051 JLINK_HasError()
T6994 011:345.086 JLINK_IsHalted()
T6994 011:345.993 - 0.905ms returns FALSE
T6994 011:446.680 JLINK_HasError()
T6994 011:446.712 JLINK_IsHalted()
T6994 011:447.381 - 0.668ms returns FALSE
T6994 011:548.267 JLINK_HasError()
T6994 011:548.312 JLINK_IsHalted()
T6994 011:549.452 - 1.138ms returns FALSE
T6994 011:650.253 JLINK_HasError()
T6994 011:650.291 JLINK_IsHalted()
T6994 011:651.406 - 1.113ms returns FALSE
T6994 011:751.706 JLINK_HasError()
T6994 011:751.753 JLINK_IsHalted()
T6994 011:752.908 - 1.154ms returns FALSE
T6994 011:853.394 JLINK_HasError()
T6994 011:853.430 JLINK_IsHalted()
T6994 011:854.459 - 1.027ms returns FALSE
T6994 011:954.706 JLINK_HasError()
T6994 011:954.767 JLINK_IsHalted()
T6994 011:955.608 - 0.839ms returns FALSE
T6994 012:057.027 JLINK_HasError()
T6994 012:057.061 JLINK_IsHalted()
T6994 012:058.129 - 1.067ms returns FALSE
T6994 012:159.244 JLINK_HasError()
T6994 012:159.285 JLINK_IsHalted()
T6994 012:160.192 - 0.906ms returns FALSE
T6994 012:261.088 JLINK_HasError()
T6994 012:261.125 JLINK_IsHalted()
T6994 012:262.136 - 1.011ms returns FALSE
T6994 012:363.122 JLINK_HasError()
T6994 012:363.159 JLINK_IsHalted()
T6994 012:363.971 - 0.811ms returns FALSE
T6994 012:464.260 JLINK_HasError()
T6994 012:464.288 JLINK_IsHalted()
T6994 012:465.140 - 0.851ms returns FALSE
T6994 012:565.346 JLINK_HasError()
T6994 012:565.380 JLINK_IsHalted()
T6994 012:566.298 - 0.917ms returns FALSE
T6994 012:666.371 JLINK_HasError()
T6994 012:666.400 JLINK_IsHalted()
T6994 012:667.240 - 0.839ms returns FALSE
T6994 012:768.221 JLINK_HasError()
T6994 012:768.258 JLINK_IsHalted()
T6994 012:769.114 - 0.855ms returns FALSE
T6994 012:869.459 JLINK_HasError()
T6994 012:869.499 JLINK_IsHalted()
T6994 012:870.531 - 1.030ms returns FALSE
T6994 012:971.382 JLINK_HasError()
T6994 012:971.418 JLINK_IsHalted()
T6994 012:972.518 - 1.099ms returns FALSE
T6994 013:073.141 JLINK_HasError()
T6994 013:073.183 JLINK_IsHalted()
T6994 013:074.079 - 0.895ms returns FALSE
T6994 013:174.806 JLINK_HasError()
T6994 013:174.833 JLINK_IsHalted()
T6994 013:175.840 - 1.006ms returns FALSE
T6994 013:276.055 JLINK_HasError()
T6994 013:276.083 JLINK_IsHalted()
T6994 013:277.121 - 1.037ms returns FALSE
T6994 013:377.553 JLINK_HasError()
T6994 013:377.578 JLINK_IsHalted()
T6994 013:378.495 - 0.917ms returns FALSE
T6994 013:479.146 JLINK_HasError()
T6994 013:479.211 JLINK_IsHalted()
T6994 013:480.378 - 1.165ms returns FALSE
T6994 013:580.480 JLINK_HasError()
T6994 013:580.514 JLINK_IsHalted()
T6994 013:581.726 - 1.211ms returns FALSE
T6994 013:682.821 JLINK_HasError()
T6994 013:682.864 JLINK_IsHalted()
T6994 013:683.918 - 1.052ms returns FALSE
T6994 013:785.158 JLINK_HasError()
T6994 013:785.197 JLINK_IsHalted()
T6994 013:786.211 - 1.012ms returns FALSE
T6994 013:886.450 JLINK_HasError()
T6994 013:886.490 JLINK_IsHalted()
T6994 013:887.589 - 1.099ms returns FALSE
T6994 013:988.099 JLINK_HasError()
T6994 013:988.152 JLINK_IsHalted()
T6994 013:989.005 - 0.851ms returns FALSE
T6994 014:089.112 JLINK_HasError()
T6994 014:089.142 JLINK_IsHalted()
T6994 014:089.886 - 0.742ms returns FALSE
T6994 014:190.032 JLINK_HasError()
T6994 014:190.064 JLINK_IsHalted()
T6994 014:190.827 - 0.761ms returns FALSE
T6994 014:291.280 JLINK_HasError()
T6994 014:291.334 JLINK_IsHalted()
T6994 014:292.138 - 0.801ms returns FALSE
T6994 014:392.413 JLINK_HasError()
T6994 014:392.446 JLINK_IsHalted()
T6994 014:393.565 - 1.118ms returns FALSE
T6994 014:494.138 JLINK_HasError()
T6994 014:494.165 JLINK_IsHalted()
T6994 014:494.974 - 0.809ms returns FALSE
T6994 014:595.786 JLINK_HasError()
T6994 014:595.811 JLINK_IsHalted()
T6994 014:596.683 - 0.871ms returns FALSE
T6994 014:697.288 JLINK_HasError()
T6994 014:697.317 JLINK_IsHalted()
T6994 014:698.251 - 0.934ms returns FALSE
T6994 014:799.387 JLINK_HasError()
T6994 014:799.424 JLINK_IsHalted()
T6994 014:800.243 - 0.817ms returns FALSE
T6994 014:900.496 JLINK_HasError()
T6994 014:900.539 JLINK_IsHalted()
T6994 014:901.891 - 1.350ms returns FALSE
T6994 015:002.206 JLINK_HasError()
T6994 015:002.242 JLINK_IsHalted()
T6994 015:003.096 - 0.852ms returns FALSE
T6994 015:103.342 JLINK_HasError()
T6994 015:103.366 JLINK_IsHalted()
